!comment
! Created with skrf 1.9.0 (http://scikit-rf.org).
# Hz S RI R 50.0 
!freq ReS11 ImS11 ReS21 ImS21 ReS12 ImS12 ReS22 ImS22
10000000.0 0.4612881 0.2204683 1.314992e-06 -2.385724e-06 2.687272e-06 -2.013257e-06 0.5189782 0.8564506
12498124.5311 0.6528988 0.650558 -3.543397e-06 8.684233e-07 -1.532843e-06 5.163193e-07 -0.1163011 1.004857
14996249.0623 0.8922756 0.3723759 5.007397e-07 -2.757602e-06 -1.537977e-06 -1.982651e-06 0.1794574 0.9902881
17494373.5934 0.949041 0.2225853 -5.676854e-07 -2.219595e-06 -8.140578e-07 8.276837e-07 0.3809129 0.9225293
19992498.1245 0.9698794 0.1299262 -7.033946e-07 1.119684e-06 2.00734e-06 -1.047086e-06 0.5196859 0.84422
22490622.6557 0.9798591 0.06370425 -1.661724e-07 -2.191742e-07 9.654849e-07 -1.919114e-06 0.618717 0.7689506
24988747.1868 0.9506953 0.03165887 -1.791038e-06 -7.653613e-07 1.109122e-06 -1.486306e-07 0.738018 0.7709695
27486871.7179 0.9881818 -0.02941342 -2.410542e-07 2.045869e-06 -1.582504e-06 1.31958e-06 0.7466629 0.6413286
29984996.2491 0.9892923 -0.06592479 -1.429271e-06 -5.292591e-07 8.984122e-07 -2.728398e-06 0.7901109 0.5886601
32483120.7802 0.9887054 -0.09944312 -2.654434e-07 1.017942e-07 8.937681e-07 6.963473e-07 0.8246688 0.542163
34981245.3113 0.986067 -0.1299687 1.310381e-06 1.958545e-06 -3.269121e-07 -7.275527e-08 0.8526541 0.5003897
37479369.8425 0.9822015 -0.1585509 -2.077607e-07 6.334863e-07 6.228528e-07 6.783561e-07 0.8755132 0.4626939
39977494.3736 0.9772369 -0.1858926 -9.16965e-07 -8.087646e-07 -2.848321e-06 -2.308271e-06 0.8947793 0.4282394
42475618.9047 0.9704527 -0.2119473 -4.800009e-08 7.613745e-07 -8.859197e-07 -2.725149e-06 0.9105434 0.3965876
44973743.4359 0.9623488 -0.2370675 2.089176e-06 -4.136642e-06 -2.050841e-06 1.569366e-06 0.9236395 0.3671851
47471867.967 0.9524053 -0.2605191 -2.240814e-06 1.128931e-06 -9.518824e-07 -1.760376e-06 0.9344336 0.3398751
49969992.4981 0.9420553 -0.283765 -1.220158e-06 -1.741764e-06 1.279638e-06 -3.21308e-06 0.9432899 0.3142848
52468117.0293 0.9319043 -0.3054334 4.844738e-07 1.185699e-06 -9.757243e-07 1.290557e-06 0.9503359 0.2908802
54966241.5604 0.9213337 -0.3257395 2.974187e-06 2.462463e-07 -4.093175e-06 -3.383151e-06 0.9567682 0.2676049
57464366.0915 0.9100862 -0.3467412 -5.666779e-07 -1.526143e-06 -8.094318e-07 -1.181304e-06 0.9616172 0.2477995
59962490.6227 0.8993888 -0.366008 1.244042e-06 -1.293881e-06 1.544454e-06 -1.010815e-07 0.9660274 0.2284286
62460615.1538 0.888625 -0.3848721 -6.605716e-07 -2.284339e-07 -2.244676e-06 -2.73068e-06 0.970035 0.2102015
64958739.6849 0.8777043 -0.4036427 -1.818494e-07 8.437449e-07 -6.262158e-07 -1.885826e-06 0.9736797 0.1930525
67456864.2161 0.8668908 -0.4215818 2.758125e-06 -2.765119e-06 1.571294e-06 -1.232194e-06 0.9769888 0.1768702
69954988.7472 0.856934 -0.439797 -1.424625e-06 -1.247941e-06 1.306808e-07 -1.424469e-06 0.9798689 0.1612627
72453113.2783 0.845998 -0.4573147 -4.636225e-07 1.395925e-06 1.020221e-06 -3.124014e-06 0.9828258 0.146537
74951237.8095 0.8348256 -0.4742014 2.673096e-06 2.361174e-07 -7.227189e-07 -3.168724e-07 0.9855324 0.1324748
77449362.3406 0.8233939 -0.4906265 9.828683e-08 -1.3601e-06 -2.396521e-06 -2.434445e-08 0.9880053 0.1189156
79947486.8717 0.811493 -0.5068347 2.157368e-06 -3.30333e-06 -2.034608e-06 5.416244e-07 0.9902598 0.1059166
82445611.4029 0.79909 -0.5225971 3.624043e-07 -6.851141e-07 2.492281e-07 -1.973822e-06 0.9922483 0.09320521
84943735.934 0.7856371 -0.5371109 -1.10243e-06 2.177453e-07 4.190842e-07 -1.29252e-08 0.9938217 0.08115551
87441860.4651 0.7727436 -0.551742 2.052946e-06 -2.712218e-06 -1.001377e-06 2.151817e-06 0.9951522 0.06932262
89939984.9962 0.7595103 -0.5658089 4.08591e-06 6.250447e-07 -1.452721e-06 -1.719369e-06 0.9961421 0.05773488
92438109.5274 0.7470196 -0.5803205 -1.526482e-06 -1.491143e-06 -3.11264e-06 -5.093581e-07 0.9966661 0.04647266
94936234.0585 0.7332003 -0.5938948 -1.140774e-06 -6.322711e-07 1.171863e-07 -3.663446e-06 0.9968855 0.03566322
97434358.5896 0.7187831 -0.6070307 2.59864e-06 -2.385047e-07 3.625398e-06 -1.879413e-06 0.9970217 0.02521754
99932483.1208 0.7048287 -0.619086 -2.782268e-07 1.944419e-06 -8.703714e-07 -1.753527e-06 0.9970704 0.01506209
102430607.652 0.6892392 -0.6312838 4.298766e-07 -9.942099e-07 -4.618049e-07 -1.100927e-06 0.9966831 0.006132385
104928732.183 0.6742051 -0.6425735 1.172604e-06 -2.730881e-06 6.654624e-07 1.877052e-07 0.9963359 -0.003315234
107426856.714 0.6584968 -0.6528307 -3.637504e-07 -2.040036e-06 -7.491161e-07 -9.965978e-07 0.9958904 -0.01247445
109924981.245 0.643541 -0.6633588 9.945212e-07 -1.776087e-06 -1.528131e-06 -1.359451e-06 0.9955887 -0.02150238
112423105.776 0.6280685 -0.674219 2.485734e-07 -1.669895e-06 -1.037494e-06 5.403507e-07 0.9952402 -0.03038327
114921230.308 0.612659 -0.6840909 8.054921e-07 -1.28832e-06 -2.389981e-07 -5.258738e-07 0.9949613 -0.03901796
117419354.839 0.59702 -0.6937016 -8.672735e-07 -2.982147e-06 -1.091785e-07 1.441923e-07 0.9945742 -0.04781116
119917479.37 0.5816916 -0.7031342 8.592149e-08 -1.535806e-07 -1.10692e-06 -1.738889e-08 0.9940442 -0.05626201
122415603.901 0.5666457 -0.7130255 -2.011521e-06 -1.999191e-06 -5.909523e-07 1.000574e-06 0.993382 -0.06435544
124913728.432 0.550836 -0.7211286 -1.242507e-06 -2.435238e-06 -1.183802e-06 -1.04387e-06 0.9928345 -0.07242037
127411852.963 0.5348402 -0.7290534 -8.962984e-07 -3.028925e-06 -1.649064e-06 2.853834e-07 0.9924014 -0.08066742
129909977.494 0.5176941 -0.7359646 3.338575e-08 -7.802897e-07 -2.152686e-06 -1.376979e-07 0.9919921 -0.08854961
132408102.026 0.5013937 -0.7431551 -6.285131e-07 -1.620669e-06 -2.168162e-06 -3.582815e-07 0.991321 -0.09625733
134906226.557 0.4853097 -0.7497193 1.172963e-07 -1.731013e-06 -8.03899e-07 4.249734e-07 0.9906207 -0.1038023
137404351.088 0.4685321 -0.7576454 -8.808963e-07 -1.962908e-06 -1.191516e-06 -1.98482e-06 0.9897797 -0.1113438
139902475.619 0.4521863 -0.7631785 -8.730226e-07 -2.789335e-06 -2.098575e-06 -1.400904e-06 0.9889882 -0.1186904
142400600.15 0.43549 -0.7686561 -4.248954e-07 -2.865531e-06 -5.69624e-07 -4.576957e-09 0.9881156 -0.1260626
144898724.681 0.4199872 -0.7750004 7.891248e-07 -3.025589e-06 -1.161923e-06 -5.534631e-07 0.9865659 -0.1332644
147396849.212 0.403138 -0.7799672 6.993621e-07 -1.955716e-06 3.170506e-07 -6.300841e-07 0.9856355 -0.1403137
149894973.743 0.3869547 -0.7842507 3.037666e-07 -3.106152e-06 -1.753542e-06 -6.174624e-07 0.984751 -0.1474037
152393098.275 0.3695779 -0.7873188 1.854392e-06 -1.66415e-06 -1.149681e-06 2.428221e-07 0.9844011 -0.1544328
154891222.806 0.352984 -0.790967 4.064523e-08 -4.136631e-06 -2.207174e-06 -2.011436e-06 0.9833994 -0.1612905
157389347.337 0.3364502 -0.7941417 -1.039541e-06 -1.984916e-06 -2.1428e-06 6.328876e-07 0.9823475 -0.1680284
159887471.868 0.31979 -0.7968739 -1.015504e-06 -1.848166e-06 -1.717984e-06 -1.178953e-06 0.9812096 -0.1746457
162385596.399 0.3031893 -0.7995572 -2.210311e-06 -2.781387e-06 -1.225494e-06 -7.671877e-07 0.9800894 -0.1812674
164883720.93 0.286428 -0.8017758 -2.397908e-07 -3.45869e-06 -1.856783e-06 4.790763e-07 0.978798 -0.1878822
167381845.461 0.270157 -0.8035058 -2.231064e-06 -3.855183e-06 -3.743094e-06 -1.292362e-06 0.9775208 -0.1944231
169879969.992 0.253528 -0.8051008 -2.656064e-06 -3.602338e-06 -6.996038e-08 -2.020267e-06 0.9762601 -0.2008995
172378094.524 0.2368563 -0.806385 -3.160688e-06 -3.612543e-06 -2.881893e-06 -2.275526e-07 0.9750853 -0.2073264
174876219.055 0.2208273 -0.8070919 -1.753392e-06 -4.354756e-06 -2.160305e-06 -1.243449e-06 0.973725 -0.2136035
177374343.586 0.2042082 -0.8075238 -3.622412e-06 -2.499184e-06 -1.188559e-06 -7.06554e-07 0.9722418 -0.2198774
179872468.117 0.187988 -0.8075534 -4.487274e-06 -2.787991e-06 -5.13885e-06 -1.368869e-06 0.9708396 -0.2260746
182370592.648 0.1721828 -0.8081666 -4.199714e-06 -2.198982e-06 -5.616233e-06 1.368495e-06 0.969256 -0.2321005
184868717.179 0.1557859 -0.8069649 -3.948869e-06 8.788735e-07 -5.489253e-06 3.624537e-06 0.967837 -0.238087
187366841.71 0.1395666 -0.8060108 -2.369745e-06 1.036874e-06 -4.443694e-06 6.504657e-06 0.9664385 -0.2441477
189864966.242 0.137711 -0.8004547 -5.121408e-07 2.079449e-06 -6.996729e-07 4.753661e-06 0.9688444 -0.2336595
192363090.773 0.1078377 -0.8009494 8.479502e-07 -2.954829e-07 9.18776e-07 2.429552e-06 0.9636408 -0.2560099
194861215.304 0.0916346 -0.7987769 3.330585e-07 4.720071e-07 9.655055e-07 2.818024e-06 0.9620971 -0.2620979
197359339.835 0.07642817 -0.7959766 1.847769e-06 -1.980109e-06 8.028533e-07 1.62286e-06 0.960592 -0.2678383
199857464.366 0.06129871 -0.7929538 -3.767452e-08 -3.594691e-06 7.460371e-07 6.426724e-07 0.9589936 -0.2736337
202355588.897 0.04563689 -0.7896852 -2.911391e-07 -3.863747e-06 -1.658629e-08 1.307741e-06 0.9573959 -0.2793783
204853713.428 0.03023349 -0.7860789 2.466663e-06 -2.987648e-06 -5.57881e-07 1.581476e-06 0.9557535 -0.285041
207351837.959 0.01529407 -0.7834449 -1.069892e-06 -4.187404e-06 2.006414e-06 9.503411e-07 0.9541497 -0.2907823
209849962.491 0.0009927605 -0.779178 3.851454e-07 -2.340674e-06 9.056936e-07 4.173707e-07 0.952525 -0.2964278
212348087.022 -0.01431407 -0.7756569 1.421244e-07 -4.360773e-06 -9.299338e-07 3.385687e-07 0.9508857 -0.3021347
214846211.553 -0.02888687 -0.7708752 -1.447139e-07 -4.221182e-06 4.153511e-07 -8.0997e-07 0.9491595 -0.3076945
217344336.084 -0.04333013 -0.7662138 -1.557493e-06 -5.895307e-06 -2.444054e-07 6.445939e-07 0.9473761 -0.3133326
219842460.615 -0.05746971 -0.7610626 -3.329778e-06 -6.021551e-06 4.196589e-07 -4.205196e-07 0.9455941 -0.3187802
222340585.146 -0.0715176 -0.755451 -1.223382e-06 -5.41156e-06 -6.616374e-07 8.231139e-07 0.9438482 -0.3242692
224838709.677 -0.08599834 -0.7496401 -2.530021e-06 -5.186399e-06 -8.916301e-07 4.88998e-07 0.9420691 -0.3298074
227336834.209 -0.09977708 -0.7436922 -2.358002e-06 -5.98442e-06 -7.530653e-07 -2.810788e-07 0.9402338 -0.3351554
229834958.74 -0.1129912 -0.7376233 -4.526695e-06 -3.880894e-06 -1.061888e-06 -2.913443e-07 0.9381442 -0.3404972
232333083.271 -0.1262681 -0.7302479 -4.624397e-06 -4.358192e-06 -5.828264e-07 1.075374e-06 0.9362172 -0.3457982
234831207.802 -0.1396314 -0.7235293 -2.432135e-06 -4.599185e-06 -1.564054e-06 -5.356466e-07 0.9343184 -0.351027
237329332.333 -0.1529363 -0.7165006 -3.524265e-06 -3.256302e-06 -7.700473e-07 1.752825e-07 0.9323476 -0.3562513
239827456.864 -0.1659213 -0.7092744 -3.826663e-06 -4.760854e-06 -1.887315e-07 -3.842977e-08 0.9304068 -0.3616086
242325581.395 -0.1781126 -0.7018971 -4.099678e-06 -3.694999e-06 -1.308505e-06 5.169459e-07 0.9284377 -0.3667882
244823705.926 -0.1902266 -0.6942075 -5.236249e-06 -3.733547e-06 -8.115373e-07 -3.82023e-07 0.9264295 -0.3719266
247321830.458 -0.2022236 -0.6863488 -4.927016e-06 -3.280942e-06 1.633485e-07 -1.039467e-07 0.9242935 -0.3772175
249819954.989 -0.2145821 -0.6780693 -4.887841e-06 -2.779193e-06 -8.865598e-07 1.071794e-06 0.9222708 -0.3823949
252318079.52 -0.2266925 -0.6696695 -5.926935e-06 -3.469706e-06 3.514279e-07 -1.258534e-06 0.9202028 -0.3875038
254816204.051 -0.2376393 -0.6611289 -4.703317e-06 -3.136365e-06 5.678387e-07 2.456822e-07 0.9180286 -0.3925546
257314328.582 -0.2486741 -0.6525075 -6.341204e-06 -3.668994e-06 -1.270538e-06 4.402306e-07 0.9158436 -0.3975811
259812453.113 -0.2597157 -0.6443787 -6.062061e-06 -1.482714e-06 8.483205e-07 -5.375057e-07 0.9137374 -0.402806
262310577.644 -0.2704278 -0.6351051 -5.733941e-06 -1.432527e-06 -7.843407e-07 -2.772834e-07 0.9116642 -0.4079267
264808702.176 -0.2812469 -0.6255258 -5.233365e-06 1.239104e-06 -4.505796e-07 -7.284545e-07 0.9095181 -0.4128141
267306826.707 -0.2919325 -0.6157311 -3.945087e-06 3.018842e-06 -5.942297e-07 9.515811e-07 0.9073839 -0.4177361
269804951.238 -0.3020074 -0.6058939 -6.015525e-07 2.80764e-06 -1.756592e-07 -1.06354e-06 0.9051076 -0.4227043
272303075.769 -0.3115353 -0.5960584 1.899345e-06 2.770491e-07 2.018459e-07 -7.590352e-07 0.9028621 -0.4277257
274801200.3 -0.3209432 -0.5863314 3.413919e-06 -3.125536e-06 8.385915e-08 -9.75715e-07 0.9006339 -0.4326981
277299324.831 -0.3301245 -0.5762631 2.548316e-06 -5.957767e-06 -5.614473e-07 -2.16269e-06 0.8979086 -0.4373506
279797449.362 -0.3395196 -0.5656177 8.680256e-07 -7.473935e-06 5.659745e-07 -9.246247e-07 0.8955711 -0.4421721
282295573.893 -0.3489726 -0.5548219 -1.021603e-06 -7.372791e-06 -2.811872e-07 -2.770772e-06 0.8932064 -0.4468576
284793698.425 -0.3586026 -0.5438123 -4.279984e-06 -8.39806e-06 -8.162777e-07 -1.357688e-06 0.8909041 -0.4515334
287291822.956 -0.3676545 -0.5326436 -4.579904e-06 -7.889048e-06 -2.738969e-06 -1.498828e-06 0.8886319 -0.4560494
289789947.487 -0.3757294 -0.5219071 -5.944648e-06 -8.360737e-06 -9.643145e-07 -1.346391e-06 0.8863287 -0.4606788
292288072.018 -0.3833736 -0.5112397 -5.598812e-06 -6.480715e-06 -1.084935e-06 4.63934e-07 0.8839732 -0.4655643
294786196.549 -0.390807 -0.5004315 -6.740377e-06 -6.325107e-06 -1.473145e-06 -1.667957e-07 0.8814658 -0.4703251
297284321.08 -0.3987441 -0.4890168 -8.494188e-06 -5.597772e-06 -7.492243e-07 -7.532435e-07 0.8789271 -0.4752187
299782445.611 -0.4068835 -0.4770048 -8.822746e-06 -5.18219e-06 -4.423017e-07 -2.512623e-06 0.8764305 -0.4799633
302280570.143 -0.4148634 -0.4647277 -9.156126e-06 -4.405189e-06 -1.478872e-06 -4.310253e-07 0.8740407 -0.4845242
304778694.674 -0.4227737 -0.4524499 -9.173099e-06 -2.837309e-06 -1.940633e-06 -8.140721e-07 0.8715902 -0.4890697
307276819.205 -0.4301048 -0.4398943 -1.062654e-05 -1.53075e-06 -3.302874e-06 -6.263925e-07 0.8690442 -0.4935899
309774943.736 -0.4367592 -0.4275251 -1.123691e-05 -1.629492e-06 -1.495741e-06 -1.329838e-06 0.8665191 -0.4982043
312273068.267 -0.4428627 -0.4152721 -1.020432e-05 2.559717e-07 -5.792508e-07 -2.682499e-06 0.8639598 -0.5027384
314771192.798 -0.4486924 -0.4027444 -9.675229e-06 2.62914e-06 -1.619211e-06 -1.792566e-06 0.8613248 -0.507434
317269317.329 -0.4543819 -0.3894712 -1.002768e-05 2.569639e-06 -2.112442e-06 -2.220643e-06 0.8586701 -0.5120177
319767441.86 -0.459959 -0.3747896 -9.530904e-06 2.688882e-06 -1.187472e-06 -2.590574e-06 0.8559405 -0.5166834
322265566.392 -0.4653123 -0.3591302 -9.079129e-06 3.633362e-06 -1.70953e-06 -1.646109e-06 0.8531528 -0.5212887
324763690.923 -0.469525 -0.3426292 -8.813323e-06 5.87695e-06 -3.393292e-06 -1.86782e-06 0.8503132 -0.5258515
327261815.454 -0.4718794 -0.3259764 -7.008924e-06 6.571581e-06 -2.662104e-06 -2.433019e-06 0.8475403 -0.530311
329759939.985 -0.4723046 -0.3095984 -7.455772e-06 6.82266e-06 -2.620888e-06 -5.221903e-06 0.844834 -0.534537
332258064.516 -0.4704761 -0.2947864 -6.821654e-06 5.770535e-06 -2.933906e-06 -4.285952e-06 0.8420479 -0.5387741
334756189.047 -0.4669577 -0.282457 -6.876497e-06 6.658038e-06 -3.499324e-06 -4.975671e-06 0.8392239 -0.5430326
337254313.578 -0.4633831 -0.2725107 -4.781407e-06 7.224998e-06 -5.34655e-06 -6.383353e-06 0.83634 -0.5472721
339752438.11 -0.460816 -0.2643516 -4.973039e-06 7.775193e-06 -5.129259e-06 -7.076548e-06 0.8333299 -0.5516096
342250562.641 -0.4598135 -0.2572378 -4.556652e-06 6.774153e-06 -8.288008e-06 -4.557311e-06 0.8302687 -0.5559211
344748687.172 -0.4601558 -0.2497694 -4.53726e-06 8.044664e-06 -9.283071e-06 -3.729417e-06 0.8272221 -0.5602751
347246811.703 -0.4616476 -0.2411559 -4.981633e-06 6.501901e-06 -9.45896e-06 -2.794272e-06 0.8241841 -0.5645927
349744936.234 -0.4634432 -0.23152 -4.227252e-06 8.397483e-06 -1.128902e-05 -1.945486e-06 0.8216894 -0.5692582
352243060.765 -0.466109 -0.2215589 -3.866361e-06 7.679105e-06 -1.382228e-05 -1.144668e-06 0.8186566 -0.5735405
354741185.296 -0.4695205 -0.2092452 -2.670175e-06 8.686747e-06 -1.305081e-05 1.706853e-06 0.8136247 -0.5807537
357239309.827 -0.4773815 -0.1838731 -2.24287e-06 7.454084e-06 -1.382323e-05 1.991624e-06 0.7940667 -0.6088538
359737434.359 -0.4837968 -0.1583468 -2.770975e-06 7.952352e-06 -1.218568e-05 4.351843e-06 0.7736067 -0.63639
362235558.89 -0.4884886 -0.1330417 -2.397329e-06 8.188673e-06 -1.48499e-05 6.457146e-06 0.7520552 -0.6632467
364733683.421 -0.4919311 -0.1076241 -1.652183e-06 9.777927e-06 -1.301418e-05 7.982859e-06 0.7293686 -0.6895059
367231807.952 -0.4940511 -0.08217691 -8.277661e-07 1.038096e-05 -1.188927e-05 1.299567e-05 0.705689 -0.7151005
369729932.483 -0.4950704 -0.05654992 -4.584795e-07 1.093615e-05 -8.361991e-06 1.42127e-05 0.6811253 -0.7398695
372228057.014 -0.4942856 -0.03107421 -1.31782e-06 1.050092e-05 -6.864534e-06 1.505159e-05 0.6557534 -0.7638528
374726181.545 -0.4923102 -0.005590001 -6.523722e-07 1.181882e-05 -2.607515e-06 1.36923e-05 0.6296561 -0.7869983
377224306.077 -0.47135 -0.1400781 -4.719461e-07 5.920941e-06 -3.232732e-06 1.19362e-05 0.8165712 -0.5725531
379722430.608 -0.4752338 -0.113535 -8.494138e-07 4.783823e-06 -3.012254e-06 1.042836e-05 0.7972768 -0.6008086
382220555.139 -0.4768469 -0.09047247 -4.543739e-07 6.845457e-06 -3.007874e-06 1.05069e-05 0.781222 -0.6227844
384718679.67 -0.4761264 -0.07841771 -1.265735e-06 5.711805e-06 1.030407e-06 8.915624e-06 0.7780194 -0.6264425
387216804.201 -0.4752561 -0.06593425 -6.929069e-07 6.583592e-06 3.747983e-07 8.854178e-06 0.7747734 -0.6302116
389714928.732 -0.4742285 -0.05328798 1.747469e-06 7.016153e-06 1.71227e-06 9.383222e-06 0.7714595 -0.6340744
392213053.263 -0.4725084 -0.04193472 -2.973804e-07 5.232371e-06 1.766553e-06 9.319242e-06 0.7680845 -0.6379281
394711177.794 -0.4705921 -0.03087532 1.582852e-06 7.020089e-06 6.147543e-07 5.407766e-06 0.7645893 -0.6419179
397209302.326 -0.4685207 -0.02031643 2.530652e-06 7.823495e-06 2.11735e-06 5.305614e-06 0.7614583 -0.646495
399707426.857 -0.4661514 -0.01002275 2.154019e-06 7.567884e-06 9.655269e-07 4.040537e-06 0.7578977 -0.6504486
402205551.388 -0.4635748 0.0003310647 3.094437e-06 7.40569e-06 -1.681703e-07 4.265766e-06 0.7544768 -0.6542743
404703675.919 -0.4606731 0.01045272 3.383613e-06 7.821073e-06 1.548308e-06 3.669669e-06 0.7509657 -0.6580393
407201800.45 -0.4576134 0.02040683 3.509538e-06 7.233268e-06 -1.610422e-06 3.887403e-06 0.7477025 -0.6616117
409699924.981 -0.4544762 0.03007855 5.011252e-06 9.144112e-06 -9.327734e-07 4.693579e-06 0.7442493 -0.6652911
412198049.512 -0.451087 0.04031831 4.976067e-06 8.485097e-06 -1.266315e-06 5.152698e-06 0.7410563 -0.6687843
414696174.044 -0.4466631 0.05053224 5.844788e-06 8.309729e-06 -2.424663e-06 6.326478e-06 0.737743 -0.67254
417194298.575 -0.442841 0.06084945 5.044751e-06 8.314309e-06 -1.052007e-06 7.395038e-06 0.7343336 -0.676121
419692423.106 -0.4388355 0.0709559 7.282576e-06 8.765922e-06 4.385061e-07 5.605096e-06 0.7307011 -0.6799164
422190547.637 -0.4346081 0.08100173 6.239211e-06 8.12962e-06 -1.924827e-07 7.175884e-06 0.7271099 -0.6837668
424688672.168 -0.430222 0.09118146 8.714675e-06 8.871626e-06 1.266265e-06 7.441196e-06 0.7231525 -0.6877031
427186796.699 -0.4254148 0.1015926 7.648179e-06 8.961919e-06 2.350489e-06 8.584979e-06 0.719255 -0.6915557
429684921.23 -0.4204258 0.1116715 8.015949e-06 7.441383e-06 1.252509e-06 6.813196e-06 0.7153385 -0.6954836
432183045.761 -0.4155717 0.1214566 1.0132e-05 7.683493e-06 1.553914e-06 5.199834e-06 0.7114466 -0.6993971
434681170.293 -0.4111985 0.1308649 9.331631e-06 7.72332e-06 3.610214e-06 3.233318e-06 0.7075503 -0.7032375
437179294.824 -0.4058143 0.1399097 1.043478e-05 8.598801e-06 2.631215e-06 6.060689e-06 0.7034928 -0.7071122
439677419.355 -0.4001702 0.1489686 1.190644e-05 8.408548e-06 2.066953e-06 4.519823e-06 0.699523 -0.7110268
442175543.886 -0.3945758 0.157688 1.110301e-05 7.171409e-06 2.137248e-06 4.740548e-06 0.6955621 -0.7147323
444673668.417 -0.388723 0.1663157 1.11995e-05 6.254685e-06 1.805378e-06 4.356533e-06 0.6916735 -0.7184482
447171792.948 -0.3827479 0.17486 1.158561e-05 5.94229e-06 9.002615e-07 4.542015e-06 0.6878536 -0.7220188
449669917.479 -0.3765553 0.1830387 1.124904e-05 5.46545e-06 1.170682e-06 5.077478e-06 0.6841108 -0.7255638
452168042.011 -0.3703027 0.1913677 1.118228e-05 6.500346e-06 3.692033e-06 4.212031e-06 0.6803258 -0.728887
454666166.542 -0.3635925 0.1997806 1.141174e-05 6.116433e-06 1.670722e-06 5.973102e-06 0.6761004 -0.731719
457164291.073 -0.3566715 0.2082954 1.227919e-05 5.097698e-06 8.007088e-07 5.316102e-06 0.6724809 -0.7348977
